!
! C:\dev\gpib\tools\s2p\kirkby\071815\8753C_35mm_cal.S2P
!
!  Min freq: 3.000000E+006 Hz
!  Max freq: 6.000000E+009 Hz
!    Points: 201
!    Params: S11 S21 S12 S22
!
!!!!!
# GHZ S MA R 50
0.0030000000000000 0.334824 179.926897 0.664643 -0.044723 0.665680 -0.065667 0.334671 180.000000 
0.0329850000000000 0.334060 179.468729 0.664468 -0.286832 0.664682 -0.294631 0.334102 179.549914 
0.0629700000000000 0.334170 179.188948 0.665130 -0.546809 0.664582 -0.555154 0.333915 179.141188 
0.0929550000000000 0.334108 178.764824 0.665321 -0.819995 0.664838 -0.854783 0.333842 178.813607 
0.1229400000000000 0.333750 178.391403 0.664547 -1.078840 0.664969 -1.057114 0.333504 178.400700 
0.1529250000000000 0.333723 178.113457 0.664880 -1.320297 0.664908 -1.312349 0.333788 178.090229 
0.1829100000000000 0.334201 177.728738 0.664624 -1.591870 0.664840 -1.688705 0.333126 177.755537 
0.2128950000000000 0.333576 177.475272 0.665842 -1.843800 0.663896 -1.867650 0.333234 177.438534 
0.2428800000000000 0.333735 177.117182 0.664795 -2.054608 0.665518 -2.102329 0.333332 176.985015 
0.2728650000000000 0.333263 176.721660 0.665521 -2.378397 0.665051 -2.416919 0.333286 176.698228 
0.3028500000000000 0.333275 176.382759 0.664619 -2.589661 0.664432 -2.695769 0.333091 176.301851 
0.3328350000000000 0.333389 175.971375 0.665057 -2.935404 0.664705 -2.855311 0.333116 175.928598 
0.3628200000000000 0.333375 175.645147 0.663932 -3.190933 0.666274 -3.219134 0.332820 175.619434 
0.3928050000000000 0.333961 175.335066 0.666039 -3.414867 0.664201 -3.498169 0.332773 175.323634 
0.4227900000000000 0.333451 175.004248 0.665526 -3.720226 0.664551 -3.601774 0.332830 174.960635 
0.4527750000000000 0.333434 174.630147 0.665065 -3.915159 0.665664 -3.974825 0.332521 174.644416 
0.4827600000000000 0.333123 174.364102 0.665489 -4.133914 0.663429 -4.231333 0.332928 174.223561 
0.5127450000000000 0.333013 173.831723 0.663420 -4.395269 0.666419 -4.496505 0.332462 174.003933 
0.5427300000000001 0.333716 173.573309 0.666633 -4.692414 0.664235 -4.714674 0.333299 173.554650 
0.5727150000000000 0.333331 173.167120 0.664195 -5.016150 0.665805 -4.972357 0.332972 173.241687 
0.6027000000000000 0.334220 172.974590 0.665699 -5.281703 0.664295 -5.258533 0.332333 172.862908 
0.6326850000000001 0.333477 172.565080 0.667135 -5.636267 0.664300 -5.570473 0.332523 172.564849 
0.6626700000000000 0.333443 172.135756 0.663272 -5.769876 0.666810 -5.752341 0.333007 172.122748 
0.6926550000000000 0.334010 171.728869 0.666178 -6.092947 0.662938 -6.202422 0.332902 171.910748 
0.7226400000000000 0.333964 171.513373 0.663880 -6.363170 0.665044 -6.217085 0.332596 171.507455 
0.7526250000000000 0.333220 171.151902 0.666274 -6.548855 0.664754 -6.468580 0.333391 171.132618 
0.7826100000000000 0.333744 170.736209 0.664466 -6.778709 0.666328 -6.902386 0.333107 170.723641 
0.8125950000000000 0.334007 170.401263 0.665358 -7.084598 0.663046 -7.037682 0.333010 170.470780 
0.8425800000000000 0.333957 170.171429 0.664784 -7.239199 0.664673 -7.184728 0.333193 170.145994 
0.8725650000000000 0.333398 169.707350 0.664628 -7.644191 0.666523 -7.693803 0.333313 169.744661 
0.9025500000000000 0.334164 169.342738 0.666254 -7.911495 0.661722 -7.909998 0.333140 169.541874 
0.9325350000000000 0.334514 169.056033 0.663508 -8.117430 0.666237 -8.015044 0.333145 169.112101 
0.9625200000000000 0.333747 168.787681 0.666889 -8.258769 0.663239 -8.307200 0.333162 168.850636 
0.9925050000000000 0.334174 168.489968 0.663726 -8.660639 0.666517 -8.685132 0.333155 168.443559 
1.0224899999999999 0.334576 168.004890 0.665572 -8.931516 0.664685 -8.970165 0.332861 168.092542 
1.0524750000000000 0.333386 167.537464 0.666844 -9.118761 0.663805 -9.096836 0.332975 167.750285 
1.0824600000000000 0.334510 167.274737 0.664409 -9.512506 0.667861 -9.425737 0.333038 167.252521 
1.1124449999999999 0.333984 167.058356 0.666785 -9.619247 0.662109 -9.744084 0.333002 167.043747 
1.1424300000000001 0.333795 166.588211 0.663898 -10.016980 0.665262 -9.910845 0.333115 166.797655 
1.1724150000000000 0.334255 166.195298 0.666981 -10.113983 0.665322 -10.091404 0.333273 166.445402 
1.2023999999999999 0.334612 165.938415 0.665895 -10.509650 0.666844 -10.489183 0.333257 166.026104 
1.2323850000000001 0.334771 165.670501 0.665605 -10.802980 0.665179 -10.876889 0.333386 165.712525 
1.2623700000000000 0.335114 165.380985 0.666157 -11.007767 0.664466 -10.961065 0.333653 165.253242 
1.2923549999999999 0.334769 164.900861 0.665322 -11.227980 0.665531 -11.251194 0.334178 164.924995 
1.3223400000000001 0.334690 164.485539 0.666875 -11.610746 0.663708 -11.693818 0.333543 164.746260 
1.3523250000000000 0.334560 164.235155 0.663518 -11.705295 0.664554 -11.786214 0.333771 164.281275 
1.3823099999999999 0.334949 164.115555 0.667775 -12.280015 0.663349 -11.880652 0.333488 164.125913 
1.4122950000000001 0.335111 163.495913 0.664266 -12.386341 0.668755 -12.272440 0.333999 163.652263 
1.4422800000000000 0.334783 163.146671 0.666540 -12.673918 0.663933 -12.621933 0.333413 163.236960 
1.4722649999999999 0.336313 162.853317 0.665524 -12.882176 0.664624 -12.778498 0.334935 162.936221 
1.5022500000000001 0.335180 162.476534 0.665878 -13.061144 0.668435 -13.045201 0.334832 162.701271 
1.5322350000000000 0.334738 162.189456 0.667391 -13.464345 0.664133 -13.477509 0.334069 162.290030 
1.5622199999999999 0.335394 161.668913 0.664182 -13.663360 0.664804 -13.571849 0.334861 161.946491 
1.5922050000000001 0.336333 161.176241 0.668155 -13.812195 0.664887 -13.746033 0.335244 161.489998 
1.6221900000000000 0.337667 160.875647 0.668069 -14.075600 0.666117 -14.182671 0.334535 161.474149 
1.6521749999999999 0.335973 160.803047 0.665145 -14.418154 0.663032 -14.470538 0.335958 161.146176 
1.6821600000000001 0.336401 160.610851 0.667529 -14.706498 0.664355 -14.596069 0.335172 160.752546 
1.7121450000000000 0.337754 160.373164 0.663321 -15.203100 0.666095 -15.130099 0.335907 160.080940 
1.7421300000000000 0.336519 159.720354 0.664890 -15.319009 0.663868 -15.375935 0.334501 160.024256 
1.7721150000000001 0.337926 159.516022 0.665176 -15.219616 0.664753 -15.305874 0.335582 159.694595 
1.8021000000000000 0.337770 158.994081 0.668842 -15.834075 0.663852 -15.666092 0.335529 159.435411 
1.8320850000000000 0.337582 158.540047 0.664835 -15.705161 0.667612 -15.989283 0.333925 159.068880 
1.8620699999999999 0.337553 158.418378 0.668764 -16.208643 0.662897 -16.306627 0.335558 158.650469 
1.8920550000000000 0.338325 157.910673 0.668638 -16.579767 0.663486 -16.330203 0.335453 158.581887 
1.9220400000000000 0.338847 157.810018 0.663799 -16.745420 0.666857 -16.699247 0.336060 157.984095 
1.9520249999999999 0.337933 157.615367 0.668211 -17.241633 0.665015 -17.205956 0.336363 157.623254 
1.9820100000000000 0.338661 157.358685 0.663961 -17.383091 0.664532 -17.329066 0.336861 157.236592 
2.0119950000000002 0.338252 156.760011 0.668172 -17.563522 0.664126 -17.472452 0.337144 156.989359 
2.0419800000000001 0.339951 156.114548 0.667226 -17.902910 0.667799 -17.722029 0.335723 156.821246 
2.0719650000000001 0.338619 155.960958 0.666269 -18.158592 0.662406 -18.223759 0.337098 156.619217 
2.1019500000000000 0.339572 155.671527 0.668283 -18.223138 0.663477 -18.226599 0.336636 156.344449 
2.1319349999999999 0.340735 155.464088 0.665993 -18.553675 0.665683 -18.515522 0.337086 156.029351 
2.1619199999999998 0.340097 155.279253 0.665798 -18.872613 0.666070 -18.989489 0.337262 155.570849 
2.1919050000000002 0.340521 155.015066 0.663964 -19.124505 0.664586 -19.150487 0.338042 155.047482 
2.2218900000000001 0.340575 154.514143 0.665118 -19.527387 0.662415 -19.333148 0.338293 154.913319 
2.2518750000000001 0.342826 154.037132 0.665903 -19.584234 0.666756 -19.421851 0.337355 154.529071 
2.2818600000000000 0.343450 154.084990 0.666490 -19.872831 0.664915 -20.084207 0.337616 154.274577 
2.3118449999999999 0.342256 153.623447 0.666013 -20.318211 0.661661 -20.221073 0.336859 154.278784 
2.3418299999999999 0.342645 153.282051 0.665815 -20.173373 0.664918 -20.092522 0.336846 153.679868 
2.3718149999999998 0.341964 152.880418 0.668612 -20.889369 0.667568 -20.749788 0.338326 153.651062 
2.4018000000000002 0.342706 152.794913 0.665114 -21.145285 0.662604 -21.183961 0.337560 153.073579 
2.4317850000000001 0.341689 152.796436 0.664935 -21.170987 0.661707 -21.151717 0.339347 152.816223 
2.4617700000000000 0.342438 152.294257 0.666599 -21.487231 0.668964 -21.452427 0.339060 152.556216 
2.4917549999999999 0.343569 152.007739 0.666159 -21.903276 0.663986 -22.001415 0.339137 152.114792 
2.5217399999999999 0.343998 151.509210 0.664065 -22.109450 0.663985 -21.958869 0.337285 151.857079 
2.5517249999999998 0.344009 151.420578 0.666754 -22.043921 0.666177 -22.165987 0.338889 151.624465 
2.5817100000000002 0.342765 150.963476 0.669378 -22.551348 0.666287 -22.499755 0.337852 151.379215 
2.6116950000000001 0.343977 150.606949 0.667730 -22.783224 0.666091 -22.779797 0.338458 151.202551 
2.6416800000000000 0.343705 150.444103 0.665624 -23.196175 0.661882 -23.211428 0.340235 150.894483 
2.6716650000000000 0.343539 150.220394 0.668302 -23.100676 0.665129 -22.968697 0.339675 150.552651 
2.7016499999999999 0.343678 149.904876 0.668497 -23.757729 0.667964 -23.855110 0.340853 150.003141 
2.7316349999999998 0.344691 149.550407 0.664650 -24.189004 0.663575 -24.123819 0.339571 149.735221 
2.7616200000000002 0.344903 149.182304 0.665864 -23.848908 0.662481 -23.813758 0.340738 149.516754 
2.7916050000000001 0.345691 148.929975 0.669359 -24.434876 0.667761 -24.252818 0.339346 149.231541 
2.8215900000000000 0.346152 148.304635 0.666979 -24.824943 0.663921 -24.712051 0.339895 148.851854 
2.8515750000000000 0.344874 148.200181 0.666686 -25.094057 0.662219 -24.771083 0.340205 148.651932 
2.8815599999999999 0.345541 147.836384 0.668683 -25.328891 0.667262 -24.914783 0.341513 148.230147 
2.9115449999999998 0.346295 147.553592 0.668268 -25.667518 0.663447 -25.543117 0.341848 148.008984 
2.9415300000000002 0.345967 147.146804 0.663267 -25.977917 0.666005 -25.656249 0.342541 147.819303 
2.9715150000000001 0.346964 147.175147 0.664027 -26.016279 0.662254 -26.002997 0.342450 147.319687 
3.0015000000000001 0.348545 146.705777 0.666016 -26.198735 0.664210 -26.090603 0.341969 147.119000 
3.0314850000000000 0.348981 146.569800 0.669791 -26.281352 0.666729 -26.382086 0.342408 146.855926 
3.0614699999999999 0.348360 146.243113 0.668197 -27.057737 0.662247 -26.890945 0.343170 146.777698 
3.0914549999999998 0.347239 145.806445 0.664122 -26.714589 0.663460 -26.870313 0.341436 146.810610 
3.1214400000000002 0.350202 145.546896 0.669955 -27.259545 0.665985 -27.048804 0.343289 146.290157 
3.1514250000000001 0.349288 145.535169 0.665622 -27.843330 0.664795 -28.101420 0.341625 145.766953 
3.1814100000000001 0.349920 145.187279 0.666223 -27.896174 0.660775 -27.727238 0.342091 145.507533 
3.2113950000000000 0.349783 144.948999 0.667775 -28.113298 0.668470 -27.649506 0.343710 145.433710 
3.2413799999999999 0.349972 144.870047 0.666084 -28.202969 0.665005 -28.396209 0.344507 144.838744 
3.2713649999999999 0.349675 144.553873 0.668195 -28.417909 0.661110 -28.494577 0.343426 144.767731 
3.3013499999999998 0.349845 144.334213 0.667435 -28.823301 0.666101 -28.581134 0.343578 144.197869 
3.3313350000000002 0.349325 143.846399 0.667721 -29.100127 0.664917 -29.093169 0.343712 144.201529 
3.3613200000000001 0.353269 143.380547 0.665207 -29.471012 0.667084 -29.136584 0.343170 143.814913 
3.3913050000000000 0.350504 143.227878 0.669450 -29.788293 0.663549 -29.688338 0.343977 143.635891 
3.4212899999999999 0.352983 142.831899 0.665243 -30.053616 0.665971 -29.735765 0.343260 143.420966 
3.4512749999999999 0.351025 142.898980 0.667204 -30.119670 0.667271 -30.098181 0.343931 143.228225 
3.4812599999999998 0.350534 142.502578 0.665792 -30.509753 0.663796 -30.476763 0.344093 142.854173 
3.5112450000000002 0.350402 142.154995 0.666826 -30.798721 0.659558 -30.462720 0.345554 142.328060 
3.5412300000000001 0.351595 141.788730 0.669477 -31.202500 0.667889 -30.777882 0.345489 142.143659 
3.5712150000000000 0.353051 141.876996 0.664289 -31.514039 0.666140 -31.542672 0.345746 141.977983 
3.6012000000000000 0.351526 141.510321 0.666768 -31.444982 0.659709 -31.397401 0.346318 141.824339 
3.6311849999999999 0.352238 141.456479 0.667168 -31.870367 0.666821 -31.245717 0.347683 141.401843 
3.6611699999999998 0.352190 140.860621 0.665473 -32.230980 0.666156 -32.426906 0.346973 141.346881 
3.6911550000000002 0.353524 140.265663 0.662718 -32.431326 0.656292 -32.333265 0.347527 140.948480 
3.7211400000000001 0.353547 140.172270 0.666172 -32.463342 0.664879 -32.154522 0.346870 140.834384 
3.7511250000000000 0.353956 139.805129 0.668150 -32.999072 0.665091 -32.634921 0.347200 140.592603 
3.7811100000000000 0.353724 139.582078 0.666495 -33.169812 0.665791 -33.278523 0.347020 140.241199 
3.8110949999999999 0.354718 139.424104 0.664280 -33.477629 0.661298 -33.094589 0.346501 140.064554 
3.8410799999999998 0.355524 139.250143 0.665578 -33.422664 0.663926 -33.321195 0.345105 139.860347 
3.8710650000000002 0.356994 139.055505 0.669613 -34.044941 0.665308 -33.706106 0.346691 139.430159 
3.9010500000000001 0.357222 138.983535 0.663641 -34.339716 0.665093 -34.429449 0.346520 139.246280 
3.9310350000000001 0.355960 138.813153 0.663634 -34.113910 0.660048 -34.145605 0.347588 139.015667 
3.9610200000000000 0.356621 138.658408 0.668975 -34.350485 0.665720 -34.484848 0.347492 138.784965 
3.9910049999999999 0.356183 138.389896 0.665559 -35.150423 0.668908 -35.140211 0.348476 138.505844 
4.0209900000000003 0.357565 138.141271 0.666548 -35.334579 0.659153 -35.046132 0.348014 138.240038 
4.0509750000000002 0.357423 138.042054 0.664740 -35.296722 0.662787 -35.080416 0.349157 138.138977 
4.0809600000000001 0.357420 137.896607 0.668940 -35.770432 0.664000 -35.506760 0.348199 137.879162 
4.1109450000000001 0.357203 137.680047 0.663849 -36.051773 0.664228 -35.742097 0.349735 137.705454 
4.1409300000000000 0.357192 137.449711 0.662961 -36.241646 0.662141 -35.911272 0.349169 137.491858 
4.1709149999999999 0.357614 137.285910 0.663276 -36.309956 0.662652 -36.379098 0.349271 137.115587 
4.2008999999999999 0.357193 137.056523 0.667566 -36.628399 0.665374 -36.382681 0.348891 136.958317 
4.2308849999999998 0.358680 136.613439 0.667180 -37.190685 0.667868 -37.034313 0.349296 136.766586 
4.2608699999999997 0.359892 136.565055 0.659873 -37.506391 0.661342 -37.245869 0.349213 136.667824 
4.2908549999999996 0.360716 136.525467 0.665802 -37.221286 0.663971 -36.898866 0.348887 136.392860 
4.3208399999999996 0.358685 136.446179 0.666343 -37.957379 0.669004 -37.773202 0.349128 136.264378 
4.3508250000000004 0.357686 136.178803 0.661710 -38.207091 0.663234 -38.267839 0.348885 135.818662 
4.3808100000000003 0.357889 135.867172 0.661562 -38.203695 0.659790 -37.917284 0.348768 135.953657 
4.4107950000000002 0.358667 135.623957 0.664938 -38.373156 0.668053 -38.161931 0.348044 135.428958 
4.4407800000000002 0.358812 135.516874 0.669185 -38.950760 0.664584 -39.112621 0.348271 135.291105 
4.4707650000000001 0.359911 135.498116 0.661942 -39.237370 0.661489 -39.034237 0.347403 135.042718 
4.5007500000000000 0.357718 135.629067 0.661683 -39.180641 0.662624 -38.903779 0.348594 134.723345 
4.5307350000000000 0.357321 135.212809 0.667122 -39.408903 0.668887 -39.382844 0.347634 134.738582 
4.5607199999999999 0.357267 134.792364 0.667434 -40.198360 0.666311 -39.957441 0.347721 134.452413 
4.5907049999999998 0.359390 134.379012 0.662709 -40.502844 0.660762 -39.918734 0.348148 134.222223 
4.6206899999999997 0.360672 134.621198 0.662299 -40.179768 0.665641 -39.790102 0.348234 133.988064 
4.6506749999999997 0.358336 134.774000 0.670151 -40.824870 0.668927 -40.615185 0.347960 133.676289 
4.6806599999999996 0.355819 134.378005 0.662087 -41.191393 0.665643 -41.381145 0.347904 133.286789 
4.7106450000000004 0.353768 133.594901 0.664855 -41.192356 0.661028 -40.739011 0.347616 132.993566 
4.7406300000000003 0.357038 133.060384 0.666600 -41.727313 0.669905 -41.150815 0.348414 132.850796 
4.7706150000000003 0.359403 133.160924 0.663594 -41.812313 0.668095 -42.117354 0.347182 132.463578 
4.8006000000000002 0.358606 133.444859 0.662131 -42.064253 0.662261 -41.835806 0.348912 132.380381 
4.8305850000000001 0.355848 133.347646 0.663631 -42.013065 0.670505 -41.956005 0.349280 132.190008 
4.8605700000000001 0.353973 132.909022 0.666292 -42.577673 0.665654 -42.785406 0.349518 131.881978 
4.8905550000000000 0.354018 132.204922 0.663978 -43.249350 0.661089 -42.902993 0.349314 131.780900 
4.9205399999999999 0.356342 131.738465 0.665356 -42.950846 0.665103 -42.450532 0.349720 131.611123 
4.9505249999999998 0.358736 131.815484 0.667576 -43.269906 0.668059 -43.371144 0.350055 131.435670 
4.9805099999999998 0.359741 132.008528 0.663428 -43.662708 0.663491 -43.796106 0.349801 131.449015 
5.0104949999999997 0.357523 131.887785 0.661992 -43.409451 0.663678 -43.654829 0.348703 131.110930 
5.0404799999999996 0.356054 131.697563 0.669339 -44.047724 0.668215 -43.639905 0.348137 130.839351 
5.0704650000000004 0.355457 131.172735 0.665772 -44.922930 0.664303 -44.692902 0.348275 130.630980 
5.1004500000000004 0.356744 130.526337 0.658241 -44.531347 0.661818 -44.473169 0.349882 130.596144 
5.1304350000000003 0.358060 130.693458 0.668930 -44.578580 0.661009 -44.382733 0.347331 130.363777 
5.1604200000000002 0.358729 130.884667 0.663735 -45.744206 0.668492 -44.889953 0.348115 129.955414 
5.1904050000000002 0.356841 130.826378 0.660829 -45.449976 0.666072 -45.551313 0.348138 129.716835 
5.2203900000000001 0.354714 130.677216 0.662087 -45.401494 0.664203 -45.415111 0.348701 129.435123 
5.2503750000000000 0.356222 129.887582 0.671282 -45.902539 0.665473 -45.594544 0.346609 129.236527 
5.2803599999999999 0.357979 129.456604 0.662412 -46.719310 0.668634 -46.390693 0.345657 128.639668 
5.3103449999999999 0.358434 129.583222 0.663184 -46.502828 0.662016 -46.632526 0.346648 128.383309 
5.3403299999999998 0.358919 129.516148 0.665716 -46.591858 0.666161 -46.345730 0.348293 128.134101 
5.3703149999999997 0.357442 129.448250 0.664835 -46.850729 0.668744 -47.017497 0.349201 128.185906 
5.4002999999999997 0.354594 129.265128 0.664785 -47.602816 0.665710 -47.511821 0.350497 127.905607 
5.4302849999999996 0.353801 128.765554 0.662478 -47.212136 0.664324 -47.482595 0.350645 127.924616 
5.4602700000000004 0.354536 128.471490 0.668753 -47.629930 0.664529 -47.327269 0.349747 127.665826 
5.4902550000000003 0.355034 128.116007 0.665156 -48.574944 0.668496 -47.992958 0.349638 127.834634 
5.5202400000000003 0.357439 128.112037 0.661353 -47.917672 0.668244 -48.539869 0.349365 127.625660 
5.5502250000000002 0.355766 128.606087 0.667639 -48.448455 0.657595 -48.397593 0.349960 127.399520 
5.5802100000000001 0.353194 127.975927 0.662575 -49.222952 0.663806 -48.147492 0.348926 126.856370 
5.6101950000000000 0.353240 127.435193 0.663859 -48.889895 0.671407 -48.995612 0.348761 126.782663 
5.6401800000000000 0.354807 126.948253 0.667760 -49.505777 0.664071 -49.969904 0.347929 126.603044 
5.6701649999999999 0.355167 126.935375 0.664492 -49.804284 0.663312 -49.250024 0.348976 126.578285 
5.7001499999999998 0.355072 126.832968 0.663545 -49.652232 0.668846 -49.509573 0.349379 126.351912 
5.7301349999999998 0.354454 126.259670 0.670666 -50.207782 0.670077 -50.101211 0.349667 126.047786 
5.7601199999999997 0.356417 126.295904 0.667417 -50.916305 0.663129 -50.645472 0.347629 125.739113 
5.7901049999999996 0.356148 126.419188 0.658223 -50.659383 0.661119 -50.707798 0.346048 125.712715 
5.8200900000000004 0.353482 126.541444 0.668638 -50.812523 0.666390 -50.614038 0.347590 125.505516 
5.8500750000000004 0.353870 125.654281 0.666934 -51.478175 0.671850 -51.369455 0.347273 125.614058 
5.8800600000000003 0.355988 125.310719 0.660459 -51.704040 0.658324 -51.716425 0.346442 124.957708 
5.9100450000000002 0.356182 125.574774 0.663022 -50.923798 0.658529 -51.136170 0.346397 124.796837 
