!
! C:\dev\gpib\tools\s2p\kirkby\071815\N9923A_SOLT12_cal_FF41_kit.S2P
!
!  Min freq: 3.000000E+006 Hz
!  Max freq: 6.000000E+009 Hz
!    Points: 201
!    Params: S11 S21 S12 S22
!
!!!!!
# GHZ S MA R 50
0.0030000000000000 0.328788 179.957311 0.671760 -0.052749 0.671903 -0.057645 0.328550 179.970995 
0.0319900000000000 0.328174 178.990814 0.671811 -0.755329 0.671765 -0.759302 0.327760 178.891293 
0.0619800000000000 0.327871 178.157385 0.672127 -1.456135 0.672079 -1.460221 0.327467 178.000697 
0.0919700000000000 0.327519 177.247300 0.672157 -2.160596 0.672289 -2.161864 0.327213 177.101111 
0.1219600000000000 0.327356 176.401157 0.672206 -2.875869 0.672079 -2.864769 0.327259 176.164094 
0.1519500000000000 0.327093 175.556058 0.672503 -3.573974 0.672255 -3.557417 0.327217 175.286424 
0.1819400000000000 0.326893 174.693344 0.672706 -4.273661 0.672595 -4.262192 0.327194 174.390840 
0.2119300000000000 0.326804 173.837867 0.672881 -4.964742 0.672964 -4.952434 0.327131 173.543711 
0.2419200000000000 0.326941 172.953100 0.673018 -5.652739 0.672974 -5.647504 0.327168 172.645399 
0.2719100000000000 0.326668 172.062270 0.672762 -6.360539 0.672703 -6.361229 0.326988 171.726017 
0.3019000000000000 0.326663 171.139000 0.672753 -7.090688 0.672569 -7.085158 0.326894 170.801978 
0.3318900000000000 0.326718 170.221615 0.672971 -7.819017 0.672923 -7.793090 0.326782 169.883081 
0.3618800000000000 0.326680 169.341835 0.673021 -8.513243 0.672854 -8.510108 0.326743 168.963448 
0.3918700000000000 0.326964 168.438779 0.673001 -9.215726 0.672859 -9.216945 0.326765 168.093001 
0.4218600000000000 0.327023 167.626921 0.672706 -9.926069 0.672878 -9.921021 0.326764 167.150793 
0.4518500000000000 0.327224 166.805209 0.672739 -10.629535 0.672763 -10.629843 0.326844 166.398076 
0.4818400000000000 0.327194 166.006365 0.672975 -11.335775 0.672859 -11.333386 0.326695 165.559846 
0.5118300000000000 0.327414 165.206412 0.672851 -12.022310 0.672854 -12.014400 0.326793 164.768178 
0.5418200000000000 0.327418 164.487821 0.672871 -12.697732 0.672731 -12.681257 0.326802 163.943360 
0.5718100000000000 0.327388 163.683222 0.672881 -13.381443 0.672805 -13.379467 0.326899 163.087821 
0.6018000000000000 0.327229 162.939878 0.672906 -14.110975 0.672979 -14.104127 0.326616 162.247655 
0.6317900000000000 0.327201 162.053997 0.673176 -14.823880 0.673148 -14.812851 0.326501 161.381650 
0.6617800000000000 0.327011 161.244132 0.673280 -15.522533 0.673306 -15.532549 0.326536 160.498297 
0.6917700000000000 0.326763 160.385240 0.673160 -16.210929 0.673201 -16.232661 0.326598 159.637894 
0.7217600000000000 0.326255 159.496980 0.673381 -16.950663 0.673199 -16.947146 0.326633 158.758483 
0.7517500000000000 0.325669 158.713316 0.673521 -17.643881 0.673271 -17.656379 0.326633 157.833445 
0.7817400000000000 0.325618 157.788557 0.673904 -18.366637 0.673389 -18.363465 0.326476 156.943452 
0.8117300000000000 0.325489 156.892454 0.674180 -19.096568 0.673935 -19.087279 0.326623 156.023393 
0.8417200000000000 0.325220 155.987574 0.673742 -19.802851 0.673944 -19.786161 0.326930 155.095060 
0.8717100000000000 0.324920 155.023409 0.673762 -20.493915 0.673727 -20.510983 0.326725 154.138945 
0.9017000000000000 0.325042 154.048043 0.673891 -21.246490 0.673599 -21.244744 0.327026 153.186475 
0.9316900000000000 0.325106 153.065763 0.673715 -21.978719 0.673748 -21.974173 0.326828 152.219047 
0.9616800000000000 0.325228 152.103015 0.674005 -22.711662 0.673748 -22.705456 0.326786 151.250634 
0.9916700000000001 0.325418 151.185213 0.673673 -23.407353 0.673436 -23.397999 0.327075 150.374156 
1.0216600000000000 0.325686 150.298731 0.673326 -24.097215 0.673491 -24.116657 0.327232 149.462162 
1.0516500000000000 0.325980 149.511805 0.673300 -24.811240 0.673164 -24.825172 0.327267 148.657436 
1.0816399999999999 0.326571 148.723180 0.673435 -25.500102 0.673326 -25.501506 0.327321 147.852916 
1.1116299999999999 0.326804 147.962504 0.673590 -26.193501 0.673486 -26.199566 0.327535 147.066576 
1.1416200000000001 0.327167 147.169922 0.673365 -26.889676 0.673601 -26.884327 0.327328 146.287844 
1.1716100000000000 0.327373 146.424126 0.673107 -27.589916 0.673307 -27.605033 0.327284 145.495599 
1.2016000000000000 0.327119 145.694915 0.673102 -28.286864 0.672783 -28.286800 0.327372 144.659427 
1.2315900000000000 0.327127 144.962654 0.673286 -29.000987 0.673362 -28.984831 0.327351 143.854796 
1.2615799999999999 0.327066 144.263372 0.673472 -29.681349 0.673239 -29.699405 0.327071 143.036102 
1.2915700000000001 0.327056 143.465146 0.673425 -30.379906 0.673478 -30.388259 0.327121 142.309981 
1.3215600000000001 0.326364 142.686107 0.673177 -31.122565 0.673325 -31.106222 0.327332 141.420395 
1.3515500000000000 0.326006 141.939795 0.673654 -31.822860 0.673676 -31.811232 0.327174 140.589063 
1.3815400000000000 0.326040 141.064774 0.674226 -32.549896 0.674219 -32.534363 0.327304 139.741491 
1.4115300000000000 0.325153 140.177896 0.673692 -33.246598 0.674361 -33.255665 0.327244 138.813122 
1.4415199999999999 0.325201 139.286702 0.674554 -33.969874 0.674212 -33.967051 0.327292 137.935562 
1.4715100000000001 0.324416 138.349274 0.674230 -34.695299 0.674178 -34.663670 0.327397 136.974621 
1.5015000000000001 0.324224 137.320555 0.674005 -35.404449 0.674146 -35.425295 0.327634 136.025310 
1.5314900000000000 0.323946 136.334450 0.673882 -36.165253 0.673991 -36.147904 0.327746 135.037528 
1.5614800000000000 0.324022 135.355845 0.674096 -36.894066 0.674147 -36.892629 0.328106 134.037322 
1.5914699999999999 0.324033 134.380374 0.673820 -37.569371 0.673950 -37.601578 0.328032 133.095817 
1.6214599999999999 0.323970 133.374351 0.673719 -38.278855 0.673144 -38.368079 0.328483 132.210651 
1.6514500000000001 0.324832 132.552767 0.673690 -39.055590 0.673818 -39.061675 0.328758 131.316929 
1.6814400000000000 0.325676 131.720471 0.673402 -39.764169 0.674017 -39.743472 0.328665 130.518424 
1.7114300000000000 0.325761 130.858190 0.673325 -40.419803 0.673519 -40.423989 0.328683 129.754483 
1.7414200000000000 0.325992 130.138974 0.672856 -41.116348 0.673299 -41.092626 0.328972 128.982066 
1.7714099999999999 0.326964 129.360589 0.673071 -41.813028 0.673204 -41.805902 0.328676 128.173567 
1.8013999999999999 0.326950 128.630044 0.672832 -42.530181 0.673226 -42.501047 0.328660 127.365587 
1.8313900000000001 0.327050 127.912041 0.673384 -43.291338 0.672833 -43.218490 0.328692 126.617370 
1.8613800000000000 0.327255 127.193630 0.672795 -43.927268 0.672904 -43.931846 0.328505 125.831715 
1.8913700000000000 0.327281 126.493674 0.673003 -44.629296 0.673276 -44.615817 0.328472 125.087890 
1.9213600000000000 0.327268 125.848814 0.673374 -45.351762 0.672557 -45.327542 0.329024 124.313081 
1.9513499999999999 0.326671 125.148409 0.673343 -46.044806 0.673599 -46.057007 0.328669 123.612133 
1.9813400000000001 0.326724 124.312768 0.674384 -46.742426 0.674035 -46.763322 0.328966 122.714291 
2.0113300000000001 0.326307 123.545045 0.674546 -47.465310 0.674402 -47.492351 0.329041 121.848019 
2.0413199999999998 0.325469 122.641660 0.674090 -48.194393 0.674289 -48.197815 0.329093 120.956199 
2.0713100000000000 0.324958 121.816368 0.673669 -48.907013 0.674010 -48.869727 0.329128 120.094571 
2.1013000000000002 0.324317 120.804843 0.674273 -49.639660 0.674036 -49.647481 0.329277 119.177521 
2.1312899999999999 0.324000 119.851586 0.673872 -50.384595 0.673685 -50.393971 0.329432 118.244694 
2.1612800000000001 0.323900 118.864944 0.673783 -51.099833 0.673929 -51.087932 0.329454 117.297826 
2.1912699999999998 0.323889 117.894742 0.673942 -51.814670 0.673814 -51.797922 0.329888 116.417805 
2.2212600000000000 0.324229 116.868138 0.673378 -52.573338 0.673849 -52.528338 0.329711 115.493167 
2.2512500000000002 0.324377 115.987351 0.673709 -53.254551 0.673273 -53.294984 0.330359 114.547293 
2.2812399999999999 0.324581 115.086957 0.673106 -54.028764 0.672993 -54.004308 0.330706 113.834157 
2.3112300000000001 0.324987 114.252685 0.673037 -54.729560 0.673149 -54.718217 0.330661 112.976708 
2.3412199999999999 0.325626 113.462761 0.672686 -55.416198 0.672822 -55.394213 0.330427 112.165213 
2.3712100000000000 0.325800 112.678675 0.672855 -56.055023 0.671935 -56.112473 0.330655 111.448687 
2.4011999999999998 0.326274 111.960959 0.671814 -56.779859 0.672366 -56.811589 0.330712 110.652543 
2.4311900000000000 0.326705 111.353403 0.671671 -57.505276 0.671581 -57.451563 0.330513 109.870167 
2.4611800000000001 0.326672 110.582886 0.671781 -58.186857 0.672028 -58.193776 0.330656 109.165078 
2.4911699999999999 0.326804 109.980685 0.672248 -58.913483 0.671921 -58.899059 0.330358 108.444339 
2.5211600000000001 0.326640 109.296673 0.672383 -59.621027 0.671900 -59.577102 0.330241 107.746525 
2.5511499999999998 0.326598 108.658278 0.672235 -60.273681 0.672477 -60.305885 0.330180 107.011411 
2.5811400000000000 0.326212 107.898658 0.673032 -61.029398 0.672475 -60.957416 0.330501 106.263866 
2.6111300000000002 0.326053 107.118868 0.673090 -61.699897 0.672820 -61.710106 0.330487 105.496672 
2.6411199999999999 0.325406 106.343958 0.673387 -62.404030 0.673291 -62.387040 0.330282 104.672463 
2.6711100000000001 0.324545 105.419502 0.673838 -63.122381 0.672765 -63.156932 0.330997 103.793975 
2.7010999999999998 0.324196 104.513084 0.673176 -63.873985 0.672803 -63.851494 0.330717 102.844548 
2.7310900000000000 0.323849 103.523534 0.672990 -64.603963 0.673116 -64.605588 0.330996 102.002837 
2.7610800000000002 0.323743 102.535594 0.673037 -65.321853 0.672982 -65.323257 0.331266 101.063756 
2.7910699999999999 0.323996 101.536860 0.672943 -66.117753 0.673029 -66.039425 0.331919 100.136098 
2.8210600000000001 0.324543 100.667900 0.673218 -66.816672 0.673300 -66.809254 0.331977 99.166388 
2.8510499999999999 0.324630 99.637920 0.672740 -67.530327 0.673239 -67.557959 0.332070 98.304294 
2.8810400000000000 0.324858 98.630637 0.672445 -68.302829 0.672755 -68.257601 0.332437 97.510104 
2.9110299999999998 0.325215 97.714400 0.672308 -69.022451 0.671973 -68.975721 0.332561 96.576214 
2.9410200000000000 0.326144 96.848568 0.672050 -69.684168 0.671845 -69.665340 0.332538 95.796022 
2.9710100000000002 0.327073 96.013259 0.671913 -70.452410 0.671611 -70.445350 0.332419 94.983474 
3.0009999999999999 0.327550 95.298010 0.671114 -71.111808 0.670994 -71.097077 0.332780 94.192534 
3.0309900000000001 0.328434 94.524775 0.670728 -71.799000 0.671239 -71.804948 0.332506 93.454905 
3.0609799999999998 0.328986 93.872517 0.671103 -72.521047 0.670717 -72.495682 0.332503 92.760780 
3.0909700000000000 0.329766 93.248985 0.670234 -73.235916 0.670504 -73.201979 0.332641 92.083423 
3.1209600000000002 0.329897 92.664166 0.670724 -73.911654 0.670470 -73.915268 0.332185 91.354787 
3.1509499999999999 0.330255 92.098340 0.670480 -74.612122 0.670746 -74.586708 0.331567 90.700007 
3.1809400000000001 0.330140 91.522685 0.670569 -75.285496 0.670525 -75.267910 0.331289 89.991150 
3.2109299999999998 0.329822 90.878794 0.669648 -75.844165 0.670534 -75.999118 0.331207 89.262422 
3.2409200000000000 0.329917 90.186868 0.671141 -76.654582 0.671282 -76.720704 0.331574 88.532675 
3.2709100000000002 0.329286 89.425815 0.671083 -77.417599 0.671112 -77.408057 0.331580 87.835478 
3.3008999999999999 0.329305 88.589129 0.670721 -78.133949 0.670457 -78.169108 0.331459 87.096744 
3.3308900000000001 0.328167 87.851782 0.671881 -78.872078 0.670828 -78.903662 0.332238 86.131871 
3.3608799999999999 0.328320 86.966175 0.672261 -79.535270 0.670890 -79.563742 0.332244 85.338566 
3.3908700000000001 0.327593 86.010175 0.671497 -80.293589 0.672381 -80.336746 0.332580 84.476195 
3.4208599999999998 0.327254 85.085532 0.671260 -80.980048 0.671290 -80.996592 0.331879 83.678327 
3.4508500000000000 0.327849 84.141484 0.671892 -81.762950 0.672149 -81.775167 0.333566 82.647640 
3.4808400000000002 0.328428 83.257560 0.670473 -82.385348 0.672432 -82.427342 0.333595 81.665808 
3.5108299999999999 0.328400 82.160574 0.671878 -83.201798 0.671665 -83.181265 0.333803 80.873642 
3.5408200000000001 0.327761 81.355921 0.670649 -83.932419 0.671164 -83.925241 0.334239 80.047981 
3.5708099999999998 0.329236 80.397778 0.669945 -84.697243 0.670168 -84.664746 0.334556 79.221220 
3.6008000000000000 0.330063 79.584922 0.669615 -85.335315 0.670319 -85.368822 0.334942 78.432320 
3.6307900000000002 0.330320 78.909895 0.670121 -86.075216 0.669992 -86.064826 0.334428 77.465440 
3.6607799999999999 0.331595 77.896436 0.669121 -86.852218 0.669157 -86.653021 0.334958 76.869282 
3.6907700000000001 0.331796 77.280772 0.668905 -87.552350 0.669240 -87.521163 0.335411 76.055354 
3.7207599999999998 0.332035 76.602769 0.667894 -88.230939 0.668787 -88.262213 0.335614 75.399073 
3.7507500000000000 0.332966 76.066149 0.669995 -88.998036 0.668671 -88.958074 0.334353 74.723390 
3.7807400000000002 0.333678 75.557453 0.669293 -89.640980 0.669312 -89.612234 0.334536 74.113680 
3.8107300000000000 0.333274 74.926265 0.669448 -90.315458 0.668790 -90.290680 0.334665 73.512254 
3.8407200000000001 0.333785 74.250017 0.668810 -90.953620 0.669503 -90.959401 0.334887 72.798566 
3.8707099999999999 0.333143 73.608690 0.668399 -91.688369 0.668712 -91.704480 0.334589 72.132933 
3.9007000000000001 0.333595 73.059832 0.669735 -92.452751 0.669832 -92.393192 0.335235 71.212919 
3.9306899999999998 0.333578 72.107123 0.670052 -93.228570 0.669180 -93.088879 0.334033 70.706722 
3.9606800000000000 0.332680 71.379179 0.669563 -93.796179 0.669327 -93.825042 0.334309 69.795932 
3.9906700000000002 0.332662 70.598776 0.669584 -94.600012 0.669374 -94.593990 0.334698 68.898778 
4.0206600000000003 0.331610 69.877992 0.669806 -95.158496 0.670724 -95.271319 0.334755 68.124971 
4.0506500000000001 0.332070 68.916525 0.670863 -95.935907 0.670370 -95.944168 0.335350 67.418126 
4.0806399999999998 0.331492 67.987199 0.669270 -96.743108 0.669986 -96.742964 0.334911 66.381174 
4.1106299999999996 0.332552 67.020521 0.669649 -97.457211 0.669946 -97.402159 0.334837 65.490405 
4.1406200000000002 0.332686 66.338440 0.669612 -98.153246 0.668662 -98.195622 0.335715 64.553654 
4.1706099999999999 0.333096 65.190648 0.669140 -98.951213 0.668773 -98.891739 0.336042 63.781144 
4.2005999999999997 0.334070 64.149742 0.668557 -99.661508 0.669516 -99.622101 0.337114 62.921460 
4.2305900000000003 0.334530 63.438144 0.668468 -100.384090 0.669353 -100.389850 0.337059 62.037537 
4.2605800000000000 0.334495 62.508333 0.668226 -100.988581 0.668042 -101.018886 0.336716 61.108211 
4.2905699999999998 0.335133 61.768955 0.666629 -101.780762 0.667202 -101.733280 0.337838 60.325349 
4.3205600000000004 0.336382 61.062288 0.666914 -102.537386 0.667427 -102.524256 0.338535 59.770941 
4.3505500000000001 0.337427 60.464769 0.667189 -103.209196 0.667493 -103.220887 0.337507 59.031155 
4.3805399999999999 0.338279 59.712529 0.666601 -103.929432 0.666626 -103.961246 0.337552 58.265622 
4.4105299999999996 0.338364 59.115968 0.666516 -104.535581 0.666499 -104.621774 0.338162 57.597699 
4.4405200000000002 0.339159 58.499893 0.666036 -105.398816 0.666251 -105.230923 0.338388 56.908426 
4.4705100000000000 0.340034 57.957362 0.666177 -106.036746 0.665749 -106.046749 0.338236 56.229764 
4.5004999999999997 0.339976 57.394371 0.666461 -106.709584 0.666155 -106.729037 0.338274 55.604045 
4.5304900000000004 0.339864 56.736591 0.665914 -107.374324 0.666325 -107.403627 0.338136 55.020575 
4.5604800000000001 0.339721 56.041221 0.666231 -108.094539 0.665732 -108.201694 0.338483 54.183493 
4.5904699999999998 0.339548 55.446825 0.666343 -108.787112 0.666473 -108.825473 0.337784 53.607270 
4.6204599999999996 0.339017 54.792338 0.666843 -109.531825 0.667174 -109.571583 0.338168 52.942485 
4.6504500000000002 0.337985 54.134836 0.666823 -110.262403 0.667011 -110.183656 0.337961 52.210263 
4.6804399999999999 0.338975 53.273108 0.666633 -110.969008 0.667379 -110.979600 0.338064 51.333788 
4.7104299999999997 0.338354 52.301386 0.666990 -111.702480 0.666591 -111.693255 0.339613 50.539517 
4.7404200000000003 0.338117 51.454132 0.667084 -112.316404 0.667309 -112.316218 0.339172 49.807295 
4.7704100000000000 0.338175 50.492592 0.666627 -113.092688 0.667175 -113.123840 0.339065 48.889861 
4.8003999999999998 0.339067 49.666997 0.666662 -113.807517 0.666467 -113.845620 0.339227 47.880309 
4.8303900000000004 0.338171 48.807561 0.667463 -114.574619 0.666373 -114.566960 0.340357 46.863351 
4.8603800000000001 0.339161 47.819200 0.665500 -115.311953 0.665806 -115.307898 0.340567 46.004011 
4.8903699999999999 0.340930 46.978659 0.665271 -115.914922 0.665991 -115.998455 0.340951 45.191777 
4.9203599999999996 0.341919 46.108850 0.664982 -116.693263 0.665542 -116.693558 0.341569 44.476058 
4.9503500000000003 0.342815 45.410061 0.664700 -117.432859 0.665063 -117.450837 0.342411 43.592584 
4.9803400000000000 0.343023 44.704009 0.665432 -118.156151 0.664521 -118.080726 0.342978 42.812596 
5.0103299999999997 0.344140 43.975917 0.663874 -118.678937 0.663553 -118.755437 0.342227 42.275562 
5.0403200000000004 0.344423 43.499246 0.663315 -119.484115 0.664459 -119.486881 0.343303 41.504790 
5.0703100000000001 0.344575 42.918857 0.662965 -120.155321 0.663895 -120.184975 0.342633 40.925478 
5.1002999999999998 0.344578 42.295045 0.662644 -120.777717 0.663290 -120.919393 0.343493 40.224737 
5.1302899999999996 0.345219 41.837697 0.663463 -121.663423 0.663385 -121.602437 0.343358 39.540627 
5.1602800000000002 0.345469 41.236303 0.664047 -122.347273 0.663119 -122.234467 0.343840 39.167423 
5.1902699999999999 0.345041 40.484464 0.662866 -122.923508 0.663106 -123.011032 0.343255 38.586823 
5.2202599999999997 0.344358 40.039454 0.664560 -123.788639 0.663223 -123.743477 0.344396 37.901037 
5.2502500000000003 0.343055 39.205018 0.663774 -124.295109 0.664025 -124.361779 0.344750 37.589322 
5.2802400000000000 0.343584 38.484106 0.662943 -125.030626 0.663769 -125.069979 0.342442 36.539435 
5.3102299999999998 0.343555 37.543233 0.664033 -125.744961 0.663999 -125.764906 0.343947 35.879910 
5.3402200000000004 0.343842 36.629957 0.663343 -126.502501 0.663988 -126.503690 0.343751 35.049599 
5.3702100000000002 0.343675 35.788985 0.665004 -127.251080 0.663284 -127.207395 0.343038 34.251445 
5.4001999999999999 0.343769 35.095341 0.663093 -127.959299 0.664395 -127.930467 0.343890 33.240399 
5.4301899999999996 0.344203 33.695655 0.664079 -128.657820 0.663806 -128.629846 0.342669 32.350189 
5.4601800000000003 0.346130 33.206168 0.663499 -129.357589 0.663534 -129.286412 0.344480 31.346607 
5.4901700000000000 0.346581 32.224787 0.663003 -130.084530 0.663623 -130.047386 0.345298 30.416624 
5.5201599999999997 0.348040 31.283722 0.662332 -130.946809 0.664341 -130.866335 0.345021 29.484400 
5.5501500000000004 0.348860 30.613984 0.662146 -131.512460 0.662910 -131.435888 0.344470 28.757226 
5.5801400000000001 0.348402 29.804023 0.662033 -132.136778 0.662371 -132.077066 0.345489 27.947402 
5.6101299999999998 0.349992 29.090828 0.661539 -132.884397 0.661375 -132.881689 0.345993 27.226001 
5.6401199999999996 0.350365 28.470669 0.660570 -133.512998 0.661889 -133.490482 0.347069 26.503056 
5.6701100000000002 0.351759 27.890244 0.659836 -134.261319 0.660485 -134.289331 0.347591 25.535352 
5.7000999999999999 0.351316 27.319670 0.658988 -134.901524 0.660698 -135.013452 0.347968 25.110605 
5.7300899999999997 0.353291 26.553540 0.659119 -135.651770 0.660367 -135.615985 0.348145 24.440074 
5.7600800000000003 0.352755 26.172307 0.659863 -136.277585 0.660498 -136.216240 0.347371 23.861880 
5.7900700000000001 0.352864 25.535978 0.659010 -136.934678 0.660610 -136.955371 0.348274 23.114030 
5.8200599999999998 0.352985 24.848429 0.660047 -137.657191 0.660118 -137.679850 0.349611 22.727932 
5.8500500000000004 0.351941 24.408521 0.660883 -138.331548 0.660036 -138.318496 0.348862 21.980915 
5.8800400000000002 0.351700 23.767493 0.660261 -139.025821 0.659950 -139.020499 0.347795 21.434476 
5.9100299999999999 0.351972 23.129177 0.660501 -139.697441 0.660314 -139.691631 0.349387 20.832135 
5.9400199999999996 0.352172 22.412107 0.659882 -140.475957 0.660031 -140.422891 0.348491 19.923819 
